STN,250,1999
8,8A,0D
1,IA,A,I,mA,1.0,0.0,0,-500,500,1,1,P
2,IB,B,I,mA,1.0,0.0,0,-500,500,1,1,P
3,IC,C,I,mA,1.0,0.0,0,-500,500,1,1,P
4,IN,N,I,mA,1.0,0.0,0,-500,500,1,1,P
5,VA,A,V,V,1.0,0.0,0,-500,500,1,1,P
6,VB,B,V,V,1.0,0.0,0,-500,500,1,1,P
7,VC,C,V,V,1.0,0.0,0,-500,500,1,1,P
8,VN,N,V,V,1.0,0.0,0,-500,500,1,1,P
60
1
15360,1956
22/02/2021,20:18:49.326031
22/02/2021,20:18:49.346031
ASCII
1
1, 0, 217758, 217758, 218408, 216458, 6229717, 6231812, 6223433, 6187822
2, 1, 214508, 214508, 215158, 213207, 6131265, 6132312, 6123933, 6089370
3, 2, 208657, 209307, 209957, 207357, 5978350, 5980445, 5971018, 5937503
4, 3, 204757, 205407, 206057, 204107, 5872566, 5874661, 5866282, 5832766
5, 4, 199557, 199557, 200207, 198257, 5710225, 5711272, 5703941, 5671472
6, 5, 193707, 193707, 195007, 192407, 5544741, 5545789, 5538457, 5507036
7, 6, 189807, 189807, 190457, 188507, 5431626, 5432673, 5425342, 5394968
8, 7, 183306, 183956, 184606, 182656, 5258811, 5259859, 5251480, 5222153
9, 8, 179406, 179406, 180706, 178106, 5139412, 5140459, 5133128, 5104849
10, 9, 172906, 173556, 174206, 171606, 4958218, 4958218, 4950886, 4923655
11, 10, 168356, 169006, 169656, 167706, 4835676, 4835676, 4829392, 4803208
12, 11, 161856, 161856, 163156, 160556, 4648198, 4648198, 4640867, 4616777
13, 12, 157305, 157955, 158605, 156655, 4519373, 4520420, 4513088, 4488999
14, 13, 150155, 150805, 152105, 150155, 4325610, 4325610, 4319326, 4296284
15, 14, 146255, 146905, 147555, 144955, 4193643, 4193643, 4187358, 4165364
16, 15, 139105, 139755, 140405, 137805, 3993596, 3993596, 3987312, 3966365
17, 16, 131304, 132604, 133254, 130654, 3789360, 3789360, 3783076, 3764224
18, 17, 126754, 128054, 128704, 126104, 3652156, 3652156, 3645872, 3628066
19, 18, 119604, 120254, 120904, 118954, 3442683, 3443730, 3437446, 3420688
20, 19, 115054, 115704, 116354, 113754, 3303384, 3302336, 3296052, 3280342
21, 20, 107254, 107904, 108554, 106603, 3089722, 3089722, 3083437, 3069822
22, 21, 102053, 103353, 104003, 101403, 2944138, 2944138, 2937854, 2925285
23, 22, 94253, 94903, 96203, 93603, 2727334, 2726286, 2720002, 2708481
24, 23, 89053, 89703, 91003, 88403, 2580703, 2579656, 2573371, 2562898
25, 24, 81903, 82553, 83203, 80603, 2359709, 2358662, 2353425, 2343999
26, 25, 76702, 77352, 78002, 75402, 2210984, 2208889, 2204699, 2196321
27, 26, 68902, 69552, 70202, 67602, 1985801, 1984753, 1979516, 1972185
28, 27, 63052, 64352, 64352, 62402, 1837075, 1833933, 1829743, 1823459
29, 28, 55252, 55902, 57202, 54602, 1609797, 1607702, 1603513, 1598276
30, 29, 47451, 48101, 48751, 46151, 1379377, 1377282, 1373093, 1370998
31, 30, 42251, 42901, 43551, 41601, 1226462, 1224367, 1220178, 1218083
32, 31, 34451, 35101, 35101, 33151, 996042, 993947, 990805, 989758
33, 32, 28601, 29901, 29901, 27951, 843127, 839985, 836843, 837890
34, 33, 20800, 21450, 22100, 19500, 610612, 606423, 603281, 605376
35, 34, 15600, 16250, 16900, 14300, 454555, 451413, 448271, 451413
36, 35, 7150, 7800, 8450, 6500, 223088, 220993, 216804, 222041
37, 36, 1950, 2600, 2600, 650, 69125, 65983, 62841, 69125
38, 37, -7151, -5851, -5851, -7801, -164437, -168626, -171768, -163389
39, 38, -12351, -11701, -11051, -13001, -318399, -321541, -324683, -316304
40, 39, -20801, -19501, -19501, -21451, -553008, -556150, -559293, -548819
41, 40, -28602, -27952, -27302, -29902, -783428, -786570, -789713, -777144
42, 41, -34452, -33152, -33152, -35102, -938438, -941580, -945770, -932154
43, 42, -42252, -40952, -40952, -42902, -1168858, -1173048, -1175142, -1161527
44, 43, -47452, -46802, -46152, -48752, -1321773, -1325963, -1328057, -1312347
45, 44, -55903, -54603, -54603, -56553, -1552193, -1556383, -1558477, -1541719
46, 45, -61103, -59803, -59803, -61753, -1703013, -1707203, -1710345, -1692540
47, 46, -68903, -68253, -67603, -69553, -1929244, -1933433, -1936575, -1916676
48, 47, -74103, -73453, -72803, -74753, -2080064, -2084254, -2086348, -2066448
49, 48, -82554, -81254, -80604, -83204, -2302105, -2307342, -2308389, -2287442
50, 49, -87754, -86454, -85804, -88404, -2450831, -2456068, -2458162, -2435120
51, 50, -94904, -94254, -93604, -96204, -2670777, -2676014, -2677061, -2652972
52, 51, -102704, -102054, -101404, -103354, -2888629, -2893866, -2894913, -2869776
53, 52, -107905, -106604, -105954, -108555, -3034212, -3039449, -3040496, -3014312
54, 53, -115055, -114405, -113755, -116355, -3246827, -3252064, -3253111, -3225880
55, 54, -120255, -118955, -118305, -120905, -3389268, -3393458, -3394505, -3365179
56, 55, -128055, -126105, -126105, -128055, -3597694, -3602931, -3603978, -3573604
57, 56, -131955, -131305, -130655, -133255, -3734898, -3741183, -3742230, -3709762
58, 57, -139106, -137806, -137806, -140406, -3941229, -3946466, -3947513, -3915045
59, 58, -143656, -143006, -143006, -144956, -4074244, -4079481, -4080528, -4047013
60, 59, -150806, -149506, -150156, -152106, -4273243, -4278480, -4278480, -4243917
61, 60, -155356, -154056, -154056, -156656, -4403116, -4409400, -4409400, -4373790
62, 61, -161857, -161207, -161207, -163807, -4596878, -4603163, -4603163, -4566505
63, 62, -169007, -167057, -167707, -169657, -4785404, -4790641, -4790641, -4753983
64, 63, -172907, -171607, -172257, -174207, -4907945, -4914230, -4913182, -4875477
65, 64, -179407, -178107, -178107, -180707, -5090187, -5096471, -5095423, -5055624
66, 65, -183307, -182657, -182657, -184607, -5208539, -5214823, -5213776, -5173976
67, 66, -189808, -188508, -188508, -191108, -5384496, -5390780, -5390780, -5348885
68, 67, -193708, -192408, -192408, -195008, -5497611, -5504943, -5503895, -5460953
69, 68, -199558, -198258, -198258, -200858, -5664142, -5670426, -5670426, -5626437
70, 69, -203458, -201508, -202158, -204758, -5774115, -5780399, -5780399, -5735362
71, 70, -209308, -207358, -208008, -209958, -5932267, -5938551, -5937504, -5892467
72, 71, -212558, -210608, -211258, -213859, -6037003, -6044335, -6042240, -5996156
73, 72, -217759, -216459, -216459, -219059, -6187823, -6195155, -6194108, -6146976
74, 73, -221659, -219709, -220359, -222309, -6286276, -6292560, -6291512, -6244381
75, 74, -226209, -224909, -224909, -227509, -6427670, -6435001, -6432907, -6383680
76, 75, -230759, -229459, -230109, -232059, -6563827, -6570111, -6569064, -6518790
77, 76, -234009, -232709, -232709, -235309, -6651805, -6659137, -6658090, -6606769
78, 77, -238559, -237259, -237259, -239859, -6779584, -6787963, -6785868, -6734547
79, 78, -241160, -240510, -240510, -242460, -6860231, -6867562, -6865468, -6813099
80, 79, -245710, -244410, -244410, -247010, -6979630, -6988009, -6985914, -6932499
81, 80, -248310, -247010, -247010, -249610, -7055040, -7062372, -7061325, -7007909
82, 81, -252210, -250910, -250910, -253510, -7163966, -7170250, -7169203, -7114740
83, 82, -254810, -253510, -253510, -255460, -7232045, -7239376, -7237282, -7181771
84, 83, -258060, -256760, -257410, -258710, -7328402, -7335734, -7334686, -7279176
85, 84, -260010, -259360, -259360, -261310, -7391244, -7398576, -7396481, -7339923
86, 85, -263260, -261960, -262610, -263910, -7480270, -7487601, -7485507, -7428949
87, 86, -266510, -265210, -265210, -267161, -7560917, -7568248, -7567201, -7509596
88, 87, -267811, -266510, -266510, -268461, -7612238, -7618522, -7616427, -7559870
89, 88, -270411, -269111, -269111, -271061, -7682411, -7688695, -7686601, -7630043
90, 89, -272361, -270411, -270411, -272361, -7725353, -7732685, -7730590, -7672985
91, 90, -273661, -272361, -272361, -274311, -7786100, -7793432, -7791337, -7733732
92, 91, -275611, -274311, -273661, -276261, -7823805, -7831137, -7829042, -7770390
93, 92, -276911, -275611, -275611, -277561, -7870936, -7879315, -7876173, -7817521
94, 93, -278211, -276261, -276261, -278861, -7902357, -7909689, -7906547, -7847894
95, 94, -279511, -277561, -277561, -280161, -7939015, -7945299, -7943205, -7884552
96, 95, -280161, -278211, -278211, -280811, -7959962, -7967294, -7964152, -7906547
97, 96, -280811, -279511, -279511, -282111, -7987194, -7995573, -7992431, -7933778
98, 97, -281461, -280161, -280161, -282761, -8008141, -8015473, -8012331, -7953678
99, 98, -282111, -280811, -280161, -282761, -8017567, -8023852, -8021757, -7963104
100, 99, -282111, -280811, -280161, -282761, -8026994, -8034325, -8031183, -7971483
101, 100, -282761, -280811, -280811, -282761, -8029088, -8036420, -8034325, -7974625
102, 101, -282761, -280811, -280811, -282761, -8028041, -8035373, -8033278, -7973578
103, 102, -282111, -280811, -280811, -282761, -8021757, -8029088, -8026994, -7967294
104, 103, -281461, -280161, -280161, -282761, -8008141, -8015473, -8013378, -7953678
105, 104, -281461, -279511, -279511, -282111, -7995573, -8003952, -8000810, -7942157
106, 105, -280161, -278861, -278861, -280811, -7970436, -7978815, -7976720, -7917020
107, 106, -279511, -278211, -278211, -280161, -7949489, -7957868, -7955773, -7896073
108, 107, -278211, -276911, -276911, -278861, -7914926, -7922257, -7920163, -7860463
109, 108, -276911, -275611, -275611, -277561, -7871984, -7880363, -7878268, -7819616
110, 109, -275611, -274311, -274311, -276911, -7840563, -7847894, -7846847, -7787147
111, 110, -273661, -272361, -272361, -274961, -7786100, -7794479, -7792384, -7733732
112, 111, -272361, -271061, -271061, -273661, -7747348, -7755727, -7753632, -7694979
113, 112, -270411, -269111, -269111, -271061, -7683458, -7690790, -7689743, -7631090
114, 113, -269111, -267161, -267161, -269761, -7637374, -7644706, -7642611, -7585006
115, 114, -265860, -264560, -264560, -267161, -7563012, -7571391, -7569296, -7512738
116, 115, -263910, -263260, -262610, -265210, -7510643, -7517975, -7515880, -7458275
117, 116, -261310, -260010, -260010, -261960, -7423712, -7431044, -7428949, -7373439
118, 117, -259360, -257410, -257410, -260010, -7361918, -7369249, -7368202, -7312692
119, 118, -255460, -254160, -254160, -256760, -7267655, -7274987, -7273939, -7218429
120, 119, -253510, -251560, -252210, -254160, -7201671, -7209003, -7206908, -7152445
121, 120, -249610, -248310, -248310, -250260, -7095888, -7103219, -7102172, -7047709
122, 121, -245710, -244410, -244410, -246360, -6982772, -6990104, -6989056, -6935641
123, 122, -243110, -241810, -241160, -243760, -6905267, -6912599, -6911552, -6858136
124, 123, -239209, -237259, -237259, -239209, -6783773, -6791105, -6790057, -6737689
125, 124, -235959, -234659, -234009, -236609, -6698937, -6706268, -6705221, -6653900
126, 125, -231409, -229459, -230109, -232059, -6570111, -6577443, -6575348, -6525075
127, 126, -228159, -226859, -226859, -228809, -6478991, -6485275, -6485275, -6435001
128, 127, -222959, -221659, -221659, -224259, -6337596, -6344928, -6343881, -6295702
129, 128, -219709, -218409, -218409, -220359, -6242286, -6248571, -6247523, -6199344
130, 129, -215159, -213208, -213208, -215159, -6093561, -6099845, -6098798, -6051666
131, 130, -210608, -209308, -209958, -211908, -5991967, -5998251, -5997203, -5950072
132, 131, -205408, -204108, -204108, -206058, -5833815, -5840099, -5839051, -5794015
133, 132, -199558, -198908, -198258, -200208, -5671473, -5677758, -5676710, -5632721
134, 133, -195658, -195008, -194358, -196308, -5559405, -5566737, -5565690, -5522748
135, 134, -189808, -188508, -188508, -190458, -5390780, -5397064, -5397064, -5354122
136, 135, -185907, -184607, -184607, -186557, -5273475, -5279759, -5280807, -5238912
137, 136, -179407, -178757, -178107, -180057, -5097518, -5103802, -5103802, -5062955
138, 137, -175507, -174207, -174207, -176157, -4976024, -4982308, -4982308, -4942508
139, 138, -169007, -168357, -167707, -169657, -4791688, -4796925, -4796925, -4759220
140, 139, -164457, -163807, -163157, -165757, -4667052, -4672289, -4673336, -4635631
141, 140, -157306, -156656, -156656, -158606, -4475384, -4480621, -4481669, -4445011
142, 141, -153406, -152106, -152106, -154056, -4345511, -4350748, -4350748, -4315138
143, 142, -146256, -145606, -144956, -147556, -4149654, -4154891, -4154891, -4121375
144, 143, -139106, -138456, -137806, -140406, -3947513, -3952750, -3954845, -3921329
145, 144, -134556, -133255, -133255, -135856, -3813451, -3818687, -3820782, -3788314
146, 145, -127405, -126105, -125455, -128055, -3605025, -3609215, -3611310, -3580936
147, 146, -122205, -120905, -120905, -123505, -3467821, -3472010, -3473058, -3443731
148, 147, -115055, -113755, -113755, -116355, -3257301, -3261490, -3262538, -3234259
149, 148, -109855, -108555, -108555, -111155, -3113812, -3116954, -3119049, -3091817
150, 149, -102054, -101404, -100754, -103354, -2897008, -2899102, -2902244, -2876060
151, 150, -97504, -96204, -96204, -98154, -2752472, -2756661, -2757708, -2733619
152, 151, -89704, -88404, -88404, -90354, -2534620, -2536715, -2538809, -2515767
153, 152, -84504, -83204, -83204, -85154, -2386942, -2390084, -2391131, -2370184
154, 153, -76703, -76053, -75403, -77353, -2162806, -2164901, -2166995, -2147095
155, 154, -71503, -70203, -70203, -72153, -2014080, -2016175, -2019317, -1999417
156, 155, -63703, -62403, -62403, -64353, -1786802, -1788897, -1790992, -1773187
157, 156, -55253, -54603, -53953, -55903, -1560572, -1562667, -1565809, -1550098
158, 157, -50052, -49402, -48752, -50702, -1406610, -1408704, -1411846, -1397183
159, 158, -41602, -40952, -40952, -42902, -1178284, -1180379, -1183521, -1170953
160, 159, -36402, -36402, -35752, -37702, -1024322, -1026417, -1028511, -1016990
161, 160, -28602, -27952, -27302, -29902, -791807, -793902, -797044, -786570
162, 161, -23401, -22101, -22101, -24051, -636797, -638892, -642034, -632608
163, 162, -14951, -14301, -13651, -16251, -406378, -408472, -411614, -403235
164, 163, -9751, -8451, -8451, -10401, -250320, -252415, -255557, -248226
165, 164, -1301, 0, 650, -2601, -17806, -19900, -23042, -17806
166, 165, 4550, 5850, 5850, 3900, 138251, 136157, 131967, 137204
167, 166, 13000, 13650, 13650, 11700, 370766, 368671, 365529, 368671
168, 167, 20800, 21450, 22100, 19500, 603281, 600139, 596997, 598044
169, 168, 26650, 27301, 27301, 25350, 757243, 755149, 750959, 752006
170, 169, 34451, 35751, 35751, 33151, 989758, 987663, 983474, 982426
171, 170, 39651, 40301, 40951, 39001, 1141626, 1138484, 1135341, 1133247
172, 171, 47451, 48751, 48751, 46801, 1370998, 1368903, 1364714, 1361572
173, 172, 53301, 53952, 54602, 52001, 1524961, 1522866, 1518676, 1514487
174, 173, 61102, 61752, 62402, 59802, 1752238, 1750144, 1745954, 1740717
175, 174, 66302, 66952, 67602, 65652, 1903059, 1900964, 1896775, 1890490
176, 175, 74102, 74752, 75402, 73452, 2126147, 2126147, 2120910, 2112531
177, 176, 79302, 79952, 80603, 78652, 2276968, 2276968, 2271731, 2262304
178, 177, 87103, 88403, 89053, 85803, 2499009, 2497961, 2492724, 2482251
179, 178, 94903, 95553, 96203, 94253, 2717908, 2717908, 2712671, 2700102
180, 179, 100103, 100753, 102053, 98803, 2864538, 2863491, 2858254, 2845686
181, 180, 107904, 108554, 109204, 106603, 3080295, 3080295, 3074011, 3060395
182, 181, 113104, 113754, 114404, 111804, 3222737, 3222737, 3217500, 3201789
183, 182, 120254, 120904, 121554, 118954, 3434304, 3434304, 3428020, 3411262
184, 183, 124804, 125454, 126754, 123504, 3573603, 3574651, 3568367, 3549514
185, 184, 132604, 132604, 133905, 131304, 3782029, 3782029, 3775745, 3755845
186, 185, 137155, 137805, 138455, 135855, 3918186, 3919233, 3911902, 3892002
187, 186, 144305, 144305, 145605, 143005, 4119280, 4119280, 4112996, 4091001
188, 187, 148855, 148855, 150155, 147555, 4251248, 4251248, 4244963, 4221921
189, 188, 156005, 156005, 157305, 154705, 4447105, 4448152, 4440820, 4417778
190, 189, 162506, 162506, 163806, 161206, 4639819, 4639819, 4633535, 4608398
191, 190, 166406, 167056, 168356, 165756, 4765503, 4765503, 4759219, 4734082
192, 191, 172906, 173556, 174856, 172256, 4950886, 4950886, 4944602, 4917371
193, 192, 177456, 178106, 179406, 176156, 5071333, 5072380, 5065049, 5036770
194, 193, 183306, 183956, 185256, 182656, 5251480, 5251480, 5244148, 5214822
195, 194, 187207, 187857, 189157, 186556, 5368784, 5369832, 5361453, 5332127
196, 195, 193707, 194357, 195007, 192407, 5538457, 5540552, 5532173, 5501799
197, 196, 197607, 198257, 198907, 196307, 5649478, 5650525, 5642146, 5611773
198, 197, 202807, 203457, 204757, 202157, 5813914, 5814961, 5806582, 5774114
199, 198, 206707, 207357, 208657, 205407, 5918650, 5919697, 5911319, 5877803
200, 199, 212557, 212557, 213858, 211257, 6074707, 6076802, 6067376, 6033860
201, 200, 215808, 216458, 217758, 215158, 6175254, 6177349, 6168970, 6133360
202, 201, 221008, 221008, 222308, 219708, 6319790, 6321885, 6313506, 6277896
203, 202, 226208, 226208, 227508, 224908, 6461184, 6463279, 6454900, 6419290
204, 203, 229458, 229458, 230758, 228158, 6553352, 6555447, 6547068, 6510410
205, 204, 234008, 234008, 235308, 232708, 6684273, 6687415, 6677989, 6640283
206, 205, 236608, 237258, 237908, 235308, 6771204, 6773299, 6764920, 6726167
207, 206, 241159, 241809, 242459, 239858, 6893745, 6895840, 6886414, 6847661
208, 207, 243759, 244409, 245059, 243109, 6972298, 6974392, 6966013, 6925166
209, 208, 248309, 248309, 249609, 247009, 7084366, 7086460, 7078081, 7037234
210, 209, 250909, 250909, 251559, 248959, 7156634, 7158728, 7150349, 7108455
211, 210, 254159, 254809, 255459, 252859, 7260323, 7262417, 7254038, 7212144
212, 211, 256109, 256759, 258059, 254809, 7324212, 7326307, 7317928, 7276033
213, 212, 259359, 260009, 261309, 258059, 7418474, 7420569, 7412190, 7368201
214, 213, 262609, 263259, 263909, 261309, 7505406, 7507500, 7499121, 7454085
215, 214, 264559, 265209, 266509, 263259, 7560916, 7563011, 7554632, 7509595
216, 215, 267160, 267160, 269110, 265209, 7636326, 7638421, 7630042, 7586053
217, 216, 268460, 269110, 270410, 267160, 7682410, 7684505, 7676126, 7631089
218, 217, 270410, 271060, 272360, 269760, 7748394, 7750489, 7742110, 7697073
219, 218, 272360, 272360, 273660, 271060, 7789241, 7790288, 7781910, 7736873
220, 219, 274310, 274310, 275610, 273010, 7842657, 7844751, 7836372, 7790288
221, 220, 274960, 274960, 276910, 274310, 7876172, 7878267, 7868841, 7822757
222, 221, 276910, 276910, 278210, 275610, 7919114, 7922256, 7912830, 7866746
223, 222, 277560, 277560, 278860, 276910, 7945298, 7947393, 7939014, 7891883
224, 223, 278860, 278860, 280160, 278210, 7978814, 7980909, 7970435, 7924351
225, 224, 279510, 280160, 281460, 278860, 8003951, 8006045, 7996619, 7949488
226, 225, 280160, 280810, 281460, 279510, 8017566, 8020708, 8011282, 7964151
227, 226, 280810, 280810, 282110, 279510, 8032229, 8034324, 8025945, 7977767
228, 227, 280810, 281460, 282110, 280160, 8037466, 8039561, 8031182, 7983003
229, 228, 281460, 281460, 282110, 280160, 8040608, 8043750, 8034324, 7987193
230, 229, 280810, 281460, 282110, 280160, 8040608, 8043750, 8034324, 7986145
231, 230, 280810, 280810, 282110, 279510, 8032229, 8035372, 8025945, 7977767
232, 231, 280810, 280810, 282110, 279510, 8023851, 8026993, 8017566, 7970435
233, 232, 280160, 280160, 281460, 278210, 8003951, 8007093, 7997666, 7950535
234, 233, 279510, 279510, 280810, 277560, 7987193, 7991382, 7981956, 7934825
235, 234, 278210, 278210, 279510, 276910, 7957867, 7961009, 7951582, 7904451
236, 235, 277560, 276910, 278210, 275610, 7922256, 7925398, 7914925, 7868841
237, 236, 276260, 276260, 277560, 274960, 7892930, 7896072, 7886646, 7840562
238, 237, 274310, 274310, 275610, 273010, 7845799, 7848941, 7838467, 7793431
239, 238, 273010, 273010, 274310, 271710, 7809141, 7812283, 7802857, 7757820
240, 239, 271060, 271060, 272360, 269760, 7751536, 7754678, 7744205, 7700215
241, 240, 269760, 269760, 270410, 268460, 7708594, 7711736, 7702310, 7657273
242, 241, 267160, 267160, 267810, 265859, 7639468, 7642610, 7632137, 7589195
243, 242, 265209, 265209, 266509, 263909, 7589195, 7592337, 7582911, 7537874
244, 243, 262609, 262609, 263259, 261309, 7509595, 7512737, 7503311, 7459322
245, 244, 260659, 260659, 261309, 259359, 7451990, 7455132, 7445706, 7402764
