STN,250,1999
8,8A,0D
1,IA,A,I,mA,1.0,0.0,0,-500,500,1,1,P
2,IB,B,I,mA,1.0,0.0,0,-500,500,1,1,P
3,IC,C,I,mA,1.0,0.0,0,-500,500,1,1,P
4,IN,N,I,mA,1.0,0.0,0,-500,500,1,1,P
5,VA,A,V,V,1.0,0.0,0,-500,500,1,1,P
6,VB,B,V,V,1.0,0.0,0,-500,500,1,1,P
7,VC,C,V,V,1.0,0.0,0,-500,500,1,1,P
8,VN,N,V,V,1.0,0.0,0,-500,500,1,1,P
60
1
15360,1956
22/02/2021,20:18:49.326031
22/02/2021,20:18:49.346031
ASCII
1
1, 0, 217758, 217758, 218408, 216458, 6229717, 6231812, 6223433, 6187822
2, 1, 179406, 179406, 180706, 178106, 5139412, 5140459, 5133128, 5104849
3, 2, 131304, 132604, 133254, 130654, 3789360, 3789360, 3783076, 3764224
4, 3, 81903, 82553, 83203, 80603, 2359709, 2358662, 2353425, 2343999
5, 4, 28601, 29901, 29901, 27951, 843127, 839985, 836843, 837890
6, 5, -28602, -27952, -27302, -29902, -783428, -786570, -789713, -777144
7, 6, -82554, -81254, -80604, -83204, -2302105, -2307342, -2308389, -2287442
8, 7, -131955, -131305, -130655, -133255, -3734898, -3741183, -3742230, -3709762
9, 8, -179407, -178107, -178107, -180707, -5090187, -5096471, -5095423, -5055624
10, 9, -217759, -216459, -216459, -219059, -6187823, -6195155, -6194108, -6146976
11, 10, -248310, -247010, -247010, -249610, -7055040, -7062372, -7061325, -7007909
12, 11, -270411, -269111, -269111, -271061, -7682411, -7688695, -7686601, -7630043
13, 12, -280811, -279511, -279511, -282111, -7987194, -7995573, -7992431, -7933778
14, 13, -281461, -279511, -279511, -282111, -7995573, -8003952, -8000810, -7942157
15, 14, -270411, -269111, -269111, -271061, -7683458, -7690790, -7689743, -7631090
16, 15, -249610, -248310, -248310, -250260, -7095888, -7103219, -7102172, -7047709
17, 16, -219709, -218409, -218409, -220359, -6242286, -6248571, -6247523, -6199344
18, 17, -179407, -178757, -178107, -180057, -5097518, -5103802, -5103802, -5062955
19, 18, -134556, -133255, -133255, -135856, -3813451, -3818687, -3820782, -3788314
20, 19, -84504, -83204, -83204, -85154, -2386942, -2390084, -2391131, -2370184
21, 20, -28602, -27952, -27302, -29902, -791807, -793902, -797044, -786570
22, 21, 26650, 27301, 27301, 25350, 757243, 755149, 750959, 752006
23, 22, 79302, 79952, 80603, 78652, 2276968, 2276968, 2271731, 2262304
24, 23, 132604, 132604, 133905, 131304, 3782029, 3782029, 3775745, 3755845
25, 24, 177456, 178106, 179406, 176156, 5071333, 5072380, 5065049, 5036770
26, 25, 215808, 216458, 217758, 215158, 6175254, 6177349, 6168970, 6133360
27, 26, 248309, 248309, 249609, 247009, 7084366, 7086460, 7078081, 7037234
28, 27, 268460, 269110, 270410, 267160, 7682410, 7684505, 7676126, 7631089
29, 28, 279510, 280160, 281460, 278860, 8003951, 8006045, 7996619, 7949488
30, 29, 280160, 280160, 281460, 278210, 8003951, 8007093, 7997666, 7950535
31, 30, 269760, 269760, 270410, 268460, 7708594, 7711736, 7702310, 7657273
32, 31, 247659, 248309, 248959, 246359, 7090650, 7091697, 7083318, 7043518
33, 32, 217758, 217758, 219058, 216458, 6231812, 6233906, 6224480, 6189917
34, 33, 179406, 180056, 180706, 178106, 5141506, 5141506, 5135222, 5105896
35, 34, 131954, 132604, 133905, 131304, 3792502, 3792502, 3787266, 3767366
36, 35, 81903, 82553, 83203, 80603, 2363899, 2361804, 2356567, 2348188
37, 36, 28601, 29901, 29901, 27951, 845222, 842080, 837890, 838938
38, 37, -28602, -27302, -27302, -29902, -781334, -785523, -787618, -776097
39, 38, -82554, -80604, -80604, -83204, -2300011, -2304200, -2306295, -2284300
40, 39, -132605, -131305, -130655, -133255, -3732804, -3740135, -3740135, -3707667
41, 40, -179407, -178107, -178107, -180707, -5088092, -5094376, -5094376, -5053529
42, 41, -217759, -216459, -216459, -219059, -6185729, -6193060, -6193060, -6144882
43, 42, -248310, -247010, -247010, -248960, -7053993, -7060277, -7059230, -7005814
44, 43, -270411, -269111, -269111, -271061, -7681364, -7689743, -7687648, -7630043
45, 44, -281461, -279511, -279511, -282111, -7986146, -7994525, -7992431, -7932731
46, 45, -281461, -279511, -280161, -282111, -7994525, -8001857, -7999762, -7940062
47, 46, -269761, -269111, -269111, -271061, -7686601, -7692885, -7690790, -7633185
48, 47, -248960, -247660, -248310, -250260, -7096935, -7103219, -7102172, -7048756
49, 48, -219709, -218409, -218409, -221009, -6245428, -6251713, -6251713, -6202487
50, 49, -179407, -178757, -178107, -180707, -5098566, -5104850, -5104850, -5065050
51, 50, -134556, -133255, -133255, -135206, -3814498, -3819735, -3819735, -3788314
52, 51, -82554, -81254, -81254, -83204, -2315721, -2318863, -2320958, -2298963
53, 52, -29252, -27952, -27302, -29902, -795997, -799139, -802281, -790760
54, 53, 26000, 26650, 27301, 24700, 754101, 752006, 748864, 748864
55, 54, 81903, 82553, 83203, 80603, 2348188, 2349236, 2343999, 2333525
56, 55, 131954, 132604, 133254, 131304, 3778887, 3779934, 3773650, 3753750
57, 56, 176806, 177456, 178756, 176156, 5070286, 5071333, 5064002, 5036770
58, 57, 217758, 218408, 218408, 216458, 6222385, 6223433, 6215054, 6180491
59, 58, 247659, 247659, 248959, 247009, 7082271, 7085413, 7077034, 7036187
60, 59, 268460, 268460, 269760, 267810, 7682410, 7685552, 7676126, 7631089
61, 60, 280160, 280160, 281460, 278860, 8003951, 8006045, 7997666, 7950535
62, 61, 280160, 280160, 281460, 278860, 8003951, 8007093, 7998714, 7950535
63, 62, 269760, 269760, 271060, 268460, 7709642, 7712784, 7702310, 7658321
64, 63, 248309, 248309, 248959, 246359, 7091697, 7094839, 7084366, 7044566
65, 64, 217108, 218408, 218408, 216458, 6233906, 6236001, 6228670, 6192012
66, 65, 179406, 180056, 180706, 178756, 5143601, 5143601, 5137317, 5109038
67, 66, 131954, 133254, 133905, 131304, 3795644, 3795644, 3789360, 3770508
68, 67, 81253, 82553, 83853, 80603, 2365993, 2363899, 2359709, 2350283
69, 68, 28601, 29901, 30551, 27951, 847316, 845222, 841032, 842080
70, 69, -28602, -27302, -27302, -29252, -777144, -781334, -784476, -772955
71, 70, -81904, -80604, -80604, -82554, -2297916, -2302105, -2303153, -2282205
72, 71, -131955, -130655, -131305, -132605, -3729662, -3734898, -3736993, -3703477
73, 72, -180057, -178757, -178107, -180057, -5084950, -5091234, -5091234, -5050387
74, 73, -217759, -217109, -216459, -219059, -6185729, -6192013, -6190966, -6143834
75, 74, -249610, -247660, -247660, -250260, -7088556, -7095888, -7093793, -7040377
76, 75, -270411, -268461, -269111, -271061, -7681364, -7687648, -7686601, -7627948
77, 76, -280811, -279511, -279511, -281461, -7986146, -7993478, -7992431, -7931684
78, 77, -280811, -279511, -279511, -281461, -7989289, -7996620, -7994525, -7934826
79, 78, -270411, -269111, -269111, -271061, -7686601, -7692885, -7690790, -7633185
80, 79, -249610, -248310, -248310, -250910, -7096935, -7103219, -7102172, -7048756
81, 80, -217759, -217109, -216459, -219059, -6197250, -6203534, -6202487, -6155355
82, 81, -179407, -178107, -178107, -180707, -5101708, -5106944, -5106944, -5066097
83, 82, -134556, -133255, -133255, -135856, -3818687, -3822877, -3823924, -3792503
84, 83, -82554, -80604, -80604, -83204, -2316768, -2320958, -2322005, -2301058
85, 84, -29252, -27952, -27302, -29902, -797044, -798091, -802281, -790760
86, 85, 26000, 26650, 27301, 25350, 750959, 749912, 744675, 745722
87, 86, 81903, 82553, 83203, 80603, 2345046, 2343999, 2339809, 2330383
88, 87, 131954, 132604, 133254, 131304, 3776792, 3776792, 3770508, 3752703
89, 88, 176806, 177456, 178756, 176156, 5067144, 5068191, 5059812, 5033628
90, 89, 217108, 217758, 219058, 217108, 6220291, 6221338, 6214007, 6178396
91, 90, 247659, 248309, 248959, 246359, 7083318, 7085413, 7075987, 7036187
92, 91, 268460, 268460, 269760, 267810, 7682410, 7684505, 7675079, 7631089
93, 92, 280160, 280160, 281460, 278860, 8003951, 8006045, 7996619, 7949488
94, 93, 279510, 280160, 281460, 278860, 8004998, 8007093, 7997666, 7951582
95, 94, 269110, 269760, 271060, 268460, 7710689, 7712784, 7703357, 7658321
96, 95, 247659, 248309, 249609, 247009, 7093792, 7095887, 7087508, 7046660
97, 96, 217758, 218408, 219058, 217108, 6236001, 6237049, 6228670, 6194107
98, 97, 177456, 178106, 178756, 176156, 5087044, 5087044, 5079712, 5051433
99, 98, 131954, 133254, 133254, 131304, 3798787, 3798787, 3792502, 3773650
100, 99, 81903, 83203, 83853, 81253, 2369136, 2367041, 2361804, 2352378
101, 100, 26000, 27301, 27301, 25350, 772954, 770859, 766670, 768764
102, 101, -28602, -27302, -27302, -29252, -776097, -779239, -781334, -769813
103, 102, -81904, -80604, -80604, -82554, -2295821, -2300011, -2302105, -2280111
104, 103, -134556, -133255, -133255, -135206, -3797740, -3801930, -3804024, -3771556
105, 104, -180057, -178107, -178107, -180057, -5082855, -5089139, -5089139, -5049339
106, 105, -217759, -216459, -216459, -218409, -6181539, -6188871, -6187823, -6140692
107, 106, -249610, -247660, -248310, -250910, -7088556, -7095888, -7093793, -7040377
108, 107, -270411, -269111, -269111, -270411, -7679269, -7686601, -7684506, -7626901
109, 108, -280811, -279511, -279511, -281461, -7985099, -7993478, -7991383, -7931684
110, 109, -281461, -279511, -279511, -282111, -7989289, -7996620, -7994525, -7934826
111, 110, -270411, -269111, -269111, -271061, -7687648, -7694979, -7692885, -7636327
112, 111, -249610, -248310, -248310, -250260, -7099030, -7105314, -7104266, -7050851
113, 112, -218409, -217109, -217109, -219059, -6198297, -6205629, -6203534, -6156403
114, 113, -180057, -178757, -178757, -180707, -5102755, -5109039, -5109039, -5069239
115, 114, -134556, -133255, -133906, -135856, -3820782, -3824972, -3826019, -3794598
116, 115, -82554, -81254, -81254, -83204, -2320958, -2324100, -2326195, -2304200
117, 116, -29252, -27952, -27952, -29902, -801234, -803328, -806470, -795997
118, 117, 26000, 26650, 27301, 25350, 748864, 747817, 741533, 742580
119, 118, 81903, 82553, 83203, 80603, 2342951, 2342951, 2336667, 2328288
120, 119, 131954, 131954, 133905, 130654, 3774697, 3774697, 3768413, 3750608
121, 120, 177456, 177456, 178756, 175506, 5064002, 5065049, 5058765, 5031533
122, 121, 217108, 217758, 219058, 216458, 6218196, 6220291, 6212959, 6177349
123, 122, 248309, 248309, 248959, 246359, 7081223, 7083318, 7074939, 7034092
124, 123, 269110, 269760, 270410, 267810, 7703357, 7706499, 7697073, 7652037
125, 124, 280160, 280160, 280810, 278860, 8002903, 8006045, 7996619, 7949488
126, 125, 280160, 280160, 280810, 278860, 8006045, 8009187, 7999761, 7952630
127, 126, 268460, 269110, 269760, 267810, 7688694, 7691836, 7683457, 7637373
128, 127, 248309, 248309, 248959, 247009, 7094839, 7096934, 7087508, 7046660
129, 128, 217758, 218408, 219058, 217108, 6238096, 6239143, 6230764, 6196201
130, 129, 177456, 178106, 178756, 176156, 5088091, 5089138, 5081807, 5054575
131, 130, 132604, 133254, 133905, 131304, 3800881, 3800881, 3794597, 3775745
132, 131, 82553, 83203, 83853, 81253, 2371230, 2371230, 2365993, 2355520
133, 132, 26000, 27301, 27951, 26000, 777143, 775048, 770859, 771906
134, 133, -27952, -27302, -27302, -29252, -771907, -775049, -778192, -766671
135, 134, -81254, -80604, -79953, -82554, -2291632, -2295821, -2297916, -2275921
136, 135, -133906, -133255, -132605, -135206, -3794598, -3799835, -3800882, -3769461
137, 136, -179407, -178107, -178107, -180057, -5080760, -5087045, -5087045, -5046197
138, 137, -217759, -216459, -216459, -219059, -6181539, -6187823, -6186776, -6140692
139, 138, -249610, -247660, -247660, -250260, -7085414, -7092745, -7091698, -7038283
140, 139, -270411, -268461, -269111, -271061, -7679269, -7686601, -7684506, -7626901
141, 140, -280811, -279511, -279511, -282111, -7987194, -7994525, -7992431, -7931684
142, 141, -280811, -279511, -280161, -282111, -7990336, -7997667, -7995573, -7935873
143, 142, -270411, -269111, -269111, -271061, -7687648, -7696027, -7693932, -7635280
144, 143, -249610, -248310, -248960, -250260, -7100077, -7107409, -7106361, -7050851
145, 144, -218409, -217109, -217109, -219709, -6201439, -6207723, -6206676, -6159545
146, 145, -180057, -178107, -178757, -180057, -5105897, -5111134, -5111134, -5072381
147, 146, -132605, -131305, -131305, -133255, -3754798, -3758988, -3760035, -3727567
148, 147, -82554, -81254, -81254, -83204, -2322005, -2326195, -2328289, -2306295
149, 148, -28602, -27952, -27952, -29902, -802281, -805423, -808565, -798091
150, 149, 27951, 29251, 29901, 27301, 825322, 823227, 819038, 819038
151, 150, 81253, 82553, 82553, 80603, 2340857, 2340857, 2334573, 2326194
152, 151, 131954, 131954, 133254, 130654, 3771555, 3772602, 3765271, 3746418
153, 152, 178756, 179406, 180706, 178106, 5123701, 5124749, 5116370, 5089138
154, 153, 217758, 217758, 219058, 216458, 6216101, 6217149, 6208770, 6174207
155, 154, 247659, 247659, 248959, 246359, 7078081, 7080176, 7070750, 7029903
156, 155, 269110, 269760, 270410, 268460, 7702310, 7705452, 7696026, 7652037
157, 156, 280160, 280160, 280810, 278210, 8002903, 8004998, 7995572, 7949488
158, 157, 280160, 280160, 280810, 278860, 8004998, 8008140, 7998714, 7951582
159, 158, 269110, 269110, 269760, 267810, 7690789, 7691836, 7683457, 7638421
160, 159, 247659, 248959, 248959, 247009, 7095887, 7097981, 7089602, 7048755
161, 160, 217758, 218408, 219058, 216458, 6239143, 6241238, 6233906, 6197249
162, 161, 177456, 178106, 179406, 176806, 5090186, 5090186, 5083901, 5055623
163, 162, 132604, 133254, 133905, 131304, 3804023, 3804023, 3797739, 3778887
164, 163, 81903, 83203, 83853, 81903, 2374372, 2373325, 2368088, 2358662
165, 164, 26000, 27301, 27951, 25350, 780285, 777143, 774001, 775048
166, 165, -27952, -27302, -26651, -29252, -770860, -774002, -777144, -765623
167, 166, -81254, -80604, -80604, -81904, -2288490, -2292679, -2294774, -2273826
168, 167, -134556, -133255, -133255, -134556, -3791456, -3796693, -3797740, -3765272
169, 168, -179407, -178107, -178107, -180057, -5078666, -5084950, -5084950, -5044103
170, 169, -219709, -217759, -218409, -220359, -6228671, -6233907, -6233907, -6185729
171, 170, -249610, -248310, -247660, -250260, -7083319, -7090651, -7089603, -7035140
172, 171, -269761, -268461, -269111, -271061, -7679269, -7685553, -7684506, -7626901
173, 172, -281461, -279511, -279511, -281461, -7992431, -7999762, -7997667, -7939015
174, 173, -281461, -279511, -280161, -281461, -7989289, -7997667, -7995573, -7935873
175, 174, -270411, -268461, -269111, -271061, -7688695, -7697074, -7694979, -7637374
176, 175, -248310, -247010, -247010, -248960, -7066561, -7073893, -7071798, -7018383
177, 176, -218409, -216459, -217109, -219059, -6203534, -6209818, -6209818, -6161639
178, 177, -180057, -178107, -178757, -180707, -5110087, -5115323, -5115323, -5074476
179, 178, -132605, -131305, -131305, -133255, -3757940, -3762130, -3764225, -3731756
180, 179, -82554, -81254, -81254, -83204, -2324100, -2328289, -2331431, -2309437
181, 180, -29252, -28602, -27952, -29902, -806470, -809612, -811707, -801234
182, 181, 28601, 29251, 29901, 27301, 820085, 817990, 812754, 814848
183, 182, 81253, 82553, 83203, 80603, 2337715, 2336667, 2331430, 2322004
184, 183, 131954, 132604, 133254, 130654, 3769460, 3769460, 3763176, 3743276
185, 184, 179406, 179406, 180706, 178106, 5121607, 5121607, 5115322, 5085996
186, 185, 217108, 217758, 219058, 215808, 6214007, 6216101, 6207722, 6172112
187, 186, 247009, 248309, 249609, 247009, 7078081, 7080176, 7070750, 7030950
188, 187, 269110, 269760, 270410, 268460, 7701263, 7703357, 7696026, 7649942
189, 188, 280160, 280160, 280810, 278210, 8001856, 8003951, 7994524, 7947393
190, 189, 279510, 280810, 281460, 278860, 8006045, 8009187, 7999761, 7952630
191, 190, 269110, 269110, 270410, 267810, 7690789, 7693931, 7684505, 7639468
192, 191, 248309, 248309, 249609, 247009, 7097981, 7100076, 7091697, 7049803
193, 192, 215808, 217108, 217758, 215158, 6190965, 6192012, 6184680, 6150117
194, 193, 177456, 178756, 179406, 176806, 5092280, 5092280, 5084949, 5057717
195, 194, 132604, 133254, 133905, 131954, 3806118, 3806118, 3798787, 3779934
196, 195, 79952, 80603, 81253, 78652, 2303152, 2302104, 2296867, 2287441
197, 196, 26000, 27951, 27951, 26000, 783427, 782380, 777143, 779238
198, 197, -27952, -27302, -27302, -29252, -766671, -769813, -772955, -761434
199, 198, -83854, -83204, -82554, -85154, -2361805, -2365994, -2368089, -2346095
200, 199, -134556, -133255, -132605, -134556, -3788314, -3793551, -3794598, -3763177
201, 200, -179407, -178107, -178107, -180057, -5076571, -5082855, -5081808, -5042008
202, 201, -219059, -217759, -217759, -220359, -6225529, -6232860, -6231813, -6183634
203, 202, -249610, -247660, -248310, -250260, -7082272, -7089603, -7088556, -7035140
204, 203, -270411, -269111, -268461, -271061, -7676127, -7683458, -7682411, -7624806
205, 204, -281461, -280161, -279511, -281461, -7991383, -7999762, -7997667, -7937968
206, 205, -280811, -278861, -279511, -281461, -7989289, -7996620, -7994525, -7934826
207, 206, -270411, -269111, -269761, -271061, -7688695, -7696027, -7694979, -7636327
208, 207, -248960, -247010, -247660, -248960, -7065514, -7072846, -7071798, -7018383
209, 208, -218409, -216459, -217109, -219059, -6205629, -6211913, -6209818, -6163734
210, 209, -180057, -178757, -178757, -180707, -5110087, -5116371, -5115323, -5075524
211, 210, -132605, -131305, -131955, -133255, -3761082, -3765272, -3765272, -3732804
212, 211, -82554, -81254, -81254, -83204, -2329337, -2332479, -2333526, -2312579
213, 212, -29252, -28602, -27952, -29902, -809612, -812755, -815897, -804376
214, 213, 28601, 28601, 29901, 27301, 816943, 815896, 811706, 812754
215, 214, 81903, 81903, 83203, 80603, 2334573, 2334573, 2328288, 2319909
216, 215, 133905, 134555, 135205, 132604, 3834397, 3834397, 3827065, 3809260
217, 216, 178756, 180056, 180056, 178106, 5118464, 5119512, 5112180, 5083901
218, 217, 217108, 217758, 219058, 216458, 6214007, 6216101, 6207722, 6173159
219, 218, 248959, 248959, 250259, 247659, 7112644, 7115786, 7106360, 7065513
220, 219, 269110, 269760, 270410, 267810, 7701263, 7703357, 7694978, 7649942
221, 220, 279510, 280160, 281460, 278860, 8002903, 8003951, 7995572, 7948440
222, 221, 279510, 279510, 280810, 278860, 7999761, 8001856, 7993477, 7946346
223, 222, 269110, 269110, 270410, 267810, 7692884, 7694978, 7685552, 7640516
224, 223, 247659, 248309, 249609, 247009, 7099029, 7101123, 7092744, 7050850
225, 224, 216458, 216458, 217758, 215158, 6194107, 6194107, 6186775, 6151165
226, 225, 177456, 178756, 179406, 176806, 5095422, 5095422, 5088091, 5059812
227, 226, 132604, 133254, 133905, 131954, 3808213, 3807165, 3800881, 3783076
228, 227, 79952, 80603, 81253, 79302, 2306294, 2304199, 2298962, 2289536
229, 228, 26650, 27301, 27951, 26000, 787617, 784475, 780285, 782380
230, 229, -28602, -27302, -27302, -29252, -762481, -766671, -769813, -758292
231, 230, -84504, -82554, -82554, -84504, -2358663, -2362852, -2364947, -2342952
232, 231, -134556, -132605, -132605, -134556, -3787267, -3791456, -3792503, -3762130
233, 232, -179407, -177457, -177457, -180057, -5074476, -5080760, -5080760, -5040961
234, 233, -219059, -217759, -217759, -219709, -6223434, -6230765, -6229718, -6181539
235, 234, -248960, -247660, -247660, -249610, -7081224, -7087509, -7086461, -7033046
236, 235, -270411, -268461, -269111, -271061, -7676127, -7683458, -7680316, -7623759
237, 236, -281461, -279511, -279511, -282111, -7993478, -8000810, -7997667, -7939015
238, 237, -280811, -279511, -279511, -282111, -7990336, -7997667, -7994525, -7935873
239, 238, -270411, -269761, -269111, -271711, -7690790, -7698122, -7696027, -7639469
240, 239, -248310, -247010, -247660, -249610, -7068656, -7074940, -7073893, -7021525
241, 240, -218409, -217109, -217109, -219059, -6207723, -6212960, -6212960, -6164781
242, 241, -178107, -176157, -176807, -178757, -5052482, -5058766, -5058766, -5018966
243, 242, -132605, -131305, -131305, -133255, -3762130, -3767367, -3768414, -3736993
244, 243, -82554, -81254, -81254, -83204, -2331431, -2334574, -2336668, -2315721
245, 244, -27302, -26001, -25351, -27302, -734202, -737344, -740486, -730013
